
T96DC 000:000 SEGGER J-Link V4.90 Log File (0000ms, 0000ms total)
T96DC 000:000 DLL Compiled: Jul 28 2014 10:35:20 (0000ms, 0000ms total)
T96DC 000:000 Logging started @ 2023-07-10 15:41 (0000ms, 0000ms total)
T96DC 000:000 JLINK_SetWarnOutHandler(...) (0000ms, 0000ms total)
T96DC 000:000 JLINK_OpenEx(...)
Firmware: J-Link V9 compiled Dec 13 2019 11:14:50
Hardware: V9.70
S/N: 59700618
Feature(s): RDI, FlashBP, FlashDL, JFlash, GDB  returns O.K. (0264ms, 0264ms total)
T96DC 000:264 JLINK_GetEmuCaps()  returns 0xB9FF7BBF (0000ms, 0264ms total)
T96DC 000:264 JLINK_TIF_GetAvailable(...) (0000ms, 0264ms total)
T96DC 000:264 JLINK_SetErrorOutHandler(...) (0000ms, 0264ms total)
T96DC 000:264 JLINK_ExecCommand("ProjectFile = "D:\新建文件夹\WeChat Files\wxid_erle28rdntsu22\FileStorage\File\2023-07\G030_new\G030_new\MDK-ARM\JLinkSettings.ini"", ...)Device "UNSPECIFIED" selected (0 KB flash, 0 KB RAM).  returns 0x00 (0005ms, 0269ms total)
T96DC 000:282 JLINK_ExecCommand("Device = STM32G030F6Px", ...)Device "UNSPECIFIED" selected (0 KB flash, 0 KB RAM).  returns 0x00 (0006ms, 0275ms total)
T96DC 000:288 JLINK_ExecCommand("DisableConnectionTimeout", ...)  returns 0x01 (0000ms, 0275ms total)
T96DC 000:288 JLINK_GetHardwareVersion()  returns 0x17AE8 (0000ms, 0275ms total)
T96DC 000:288 JLINK_GetDLLVersion()  returns 49000 (0000ms, 0275ms total)
T96DC 000:288 JLINK_GetFirmwareString(...) (0000ms, 0275ms total)
T96DC 000:297 JLINK_GetDLLVersion()  returns 49000 (0000ms, 0275ms total)
T96DC 000:298 JLINK_GetCompileDateTime() (0000ms, 0276ms total)
T96DC 000:302 JLINK_GetFirmwareString(...) (0000ms, 0276ms total)
T96DC 000:305 JLINK_GetHardwareVersion()  returns 0x17AE8 (0000ms, 0276ms total)
T96DC 000:316 JLINK_TIF_Select(JLINKARM_TIF_SWD)  returns 0x00 (0001ms, 0277ms total)
T96DC 000:317 JLINK_SetSpeed(5000) (0001ms, 0278ms total)
T96DC 000:318 JLINK_GetId() >0x108 TIF>Found SWD-DP with ID 0x0BC11477 >0x0D TIF> >0x21 TIF> >0x0D TIF> >0x28 TIF> >0x0D TIF> >0x28 TIF> >0x0D TIF> >0x21 TIF> >0x0D TIF> >0x28 TIF> >0x0D TIF> >0x21 TIF> >0x0D TIF> >0x21 TIF> >0x0D TIF> >0x21 TIF> >0x0D TIF> >0x28 TIF> >0x0D TIF> >0x28 TIF> >0x0D TIF> >0x28 TIF> >0x0D TIF> >0x21 TIF> >0x0D TIF> >0x21 TIF> >0x0D TIF> >0x21 TIF> >0x0D TIF> >0x28 TIF> >0x0D TIF> >0x28 TIF> >0x0D TIF> >0x21 TIF> >0x0D TIF> >0x28 TIF> >0x0D TIF> >0x28 TIF> >0x0D TIF>
 >0x28 TIF> >0x0D TIF> >0x21 TIF> >0x0D TIF> >0x21 TIF> >0x0D TIF> >0x28 TIF> >0x0D TIF> >0x21 TIF> >0x0D TIF> >0x21 TIF>Found Cortex-M0 r0p1, Little endian. -- CPU_WriteMem(4 bytes @ 0xE0002000) -- CPU_ReadMem(4 bytes @ 0xE000EDF0) -- CPU_ReadMem(4 bytes @ 0xE0002000)FPUnit: 4 code (BP) slots and 0 literal slots -- CPU_ReadMem(4 bytes @ 0xE000EDFC) -- CPU_ReadMem(4 bytes @ 0xE0001000) -- CPU_WriteMem(4 bytes @ 0xE0001000) -- CPU_ReadMem(4 bytes @ 0xE00FF018) >0x0D TIF> >0x21 TIF>  returns 0x0BC11477
 (0028ms, 0306ms total)
T96DC 000:346 JLINK_GetDLLVersion()  returns 49000 (0000ms, 0306ms total)
T96DC 000:346 JLINK_CORE_GetFound()  returns 0x60000FF (0000ms, 0306ms total)
T96DC 000:350 JLINK_GetDebugInfo(0x100) -- Value=0xF0000003  returns 0x00 (0000ms, 0306ms total)
T96DC 000:350 JLINK_GetDebugInfo(0x101)  returns 0xFFFFFFFF (0000ms, 0306ms total)
T96DC 000:350 JLINK_ReadMemEx(0xE0041FF0, 0x0010 Bytes, ..., AccessWidth = 33554436) -- CPU is running -- CPU_ReadMem(16 bytes @ 0xE0041FF0) - Data: 00 00 00 00 00 00 00 00 00 00 00 00 00 00 00 00  returns 0x10 (0000ms, 0306ms total)
T96DC 000:350 JLINK_GetDebugInfo(0x102)  returns 0xFFFFFFFF (0000ms, 0306ms total)
T96DC 000:350 JLINK_GetDebugInfo(0x103)  returns 0xFFFFFFFF (0000ms, 0306ms total)
T96DC 000:350 JLINK_ReadMemEx(0xE0040FF0, 0x0010 Bytes, ..., AccessWidth = 33554436) -- CPU is running -- CPU_ReadMem(16 bytes @ 0xE0040FF0) - Data: 00 00 00 00 00 00 00 00 00 00 00 00 00 00 00 00  returns 0x10 (0001ms, 0307ms total)
T96DC 000:351 JLINK_GetDebugInfo(0x104)  returns 0xFFFFFFFF (0000ms, 0307ms total)
T96DC 000:351 JLINK_GetDebugInfo(0x105)  returns 0xFFFFFFFF (0000ms, 0307ms total)
T96DC 000:351 JLINK_GetDebugInfo(0x106)  returns 0xFFFFFFFF (0000ms, 0307ms total)
T96DC 000:351 JLINK_GetDebugInfo(0x107)  returns 0xFFFFFFFF (0000ms, 0307ms total)
T96DC 000:351 JLINK_GetDebugInfo(0x10C)  returns 0xFFFFFFFF (0000ms, 0307ms total)
T96DC 000:351 JLINK_ReadMemU32(0xE000ED00, 0x0001 Items, ...) -- CPU is running -- CPU_ReadMem(4 bytes @ 0xE000ED00) - Data: 01 C6 0C 41  returns 0x01 (0000ms, 0307ms total)
T96DC 000:351 JLINK_GetDebugInfo(0x10F)  returns 0xFFFFFFFF (0000ms, 0307ms total)
T96DC 000:351 JLINK_SetResetType(JLINKARM_RESET_TYPE_NORMAL)  returns JLINKARM_RESET_TYPE_NORMAL (0000ms, 0307ms total)
T96DC 000:351 JLINK_Reset() -- CPU is running -- CPU_WriteMem(4 bytes @ 0xE000EDF0) -- CPU is running -- CPU_WriteMem(4 bytes @ 0xE000EDFC) >0x35 TIF> -- CPU is running -- CPU_WriteMem(4 bytes @ 0xE000ED0C) -- CPU is running -- CPU_ReadMem(4 bytes @ 0xE000EDF0) -- CPU is running -- CPU_ReadMem(4 bytes @ 0xE000EDF0) -- CPU is running -- CPU_WriteMem(4 bytes @ 0xE000EDF0) -- CPU is running -- CPU_WriteMem(4 bytes @ 0xE000EDFC) -- CPU is running -- CPU_ReadMem(4 bytes @ 0xE000EDF0)
 -- CPU_WriteMem(4 bytes @ 0xE0002000) -- CPU_ReadMem(4 bytes @ 0xE000EDFC) -- CPU_ReadMem(4 bytes @ 0xE0001000) -- CPU_WriteMem(4 bytes @ 0xE0001000) (0015ms, 0322ms total)
T96DC 000:366 JLINK_Halt()  returns 0x00 (0000ms, 0322ms total)
T96DC 000:366 JLINK_ReadMemU32(0xE000EDF0, 0x0001 Items, ...) -- CPU_ReadMem(4 bytes @ 0xE000EDF0) - Data: 03 00 03 00  returns 0x01 (0000ms, 0322ms total)
T96DC 000:366 JLINK_WriteU32(0xE000EDF0, 0xA05F0003) -- CPU_WriteMem(4 bytes @ 0xE000EDF0)  returns 0x00 (0001ms, 0323ms total)
T96DC 000:367 JLINK_WriteU32(0xE000EDFC, 0x01000000) -- CPU_WriteMem(4 bytes @ 0xE000EDFC)  returns 0x00 (0000ms, 0323ms total)
T96DC 000:379 JLINK_GetHWStatus(...)  returns 0x00 (0000ms, 0323ms total)
T96DC 000:388 JLINK_GetNumBPUnits(Type = 0xFFFFFF00)  returns 0x04 (0000ms, 0323ms total)
T96DC 000:388 JLINK_GetNumBPUnits(Type = 0xF0)  returns 0x2000 (0000ms, 0323ms total)
T96DC 000:388 JLINK_GetNumWPUnits()  returns 0x02 (0000ms, 0323ms total)
T96DC 000:397 JLINK_GetSpeed()  returns 0xFA0 (0000ms, 0323ms total)
T96DC 000:405 JLINK_ReadMemU32(0xE000E004, 0x0001 Items, ...) -- CPU_ReadMem(4 bytes @ 0xE000E004) - Data: 00 00 00 00  returns 0x01 (0000ms, 0323ms total)
T96DC 000:405 JLINK_Halt()  returns 0x00 (0000ms, 0323ms total)
T96DC 000:405 JLINK_IsHalted()  returns TRUE (0000ms, 0323ms total)
T96DC 000:409 JLINK_WriteMem(0x20000000, 0x0218 Bytes, ...) - Data: 00 BE 0A E0 0D 78 2D 06 68 40 08 24 40 00 00 D3 ... -- CPU_WriteMem(536 bytes @ 0x20000000)  returns 0x218 (0002ms, 0325ms total)
T96DC 000:412 JLINK_WriteReg(R0, 0x08000000)  returns 0x00 (0000ms, 0325ms total)
T96DC 000:412 JLINK_WriteReg(R1, 0x007A1200)  returns 0x00 (0000ms, 0325ms total)
T96DC 000:412 JLINK_WriteReg(R2, 0x00000001)  returns 0x00 (0000ms, 0325ms total)
T96DC 000:412 JLINK_WriteReg(R3, 0x00000000)  returns 0x00 (0000ms, 0325ms total)
T96DC 000:412 JLINK_WriteReg(R4, 0x00000000)  returns 0x00 (0000ms, 0325ms total)
T96DC 000:412 JLINK_WriteReg(R5, 0x00000000)  returns 0x00 (0000ms, 0325ms total)
T96DC 000:412 JLINK_WriteReg(R6, 0x00000000)  returns 0x00 (0000ms, 0325ms total)
T96DC 000:412 JLINK_WriteReg(R7, 0x00000000)  returns 0x00 (0000ms, 0325ms total)
T96DC 000:412 JLINK_WriteReg(R8, 0x00000000)  returns 0x00 (0000ms, 0325ms total)
T96DC 000:412 JLINK_WriteReg(R9, 0x20000200)  returns 0x00 (0000ms, 0325ms total)
T96DC 000:412 JLINK_WriteReg(R10, 0x00000000)  returns 0x00 (0000ms, 0325ms total)
T96DC 000:412 JLINK_WriteReg(R11, 0x00000000)  returns 0x00 (0000ms, 0325ms total)
T96DC 000:412 JLINK_WriteReg(R12, 0x00000000)  returns 0x00 (0000ms, 0325ms total)
T96DC 000:412 JLINK_WriteReg(R13 (SP), 0x20000800)  returns 0x00 (0000ms, 0325ms total)
T96DC 000:412 JLINK_WriteReg(R14, 0x20000001)  returns 0x00 (0000ms, 0325ms total)
T96DC 000:412 JLINK_WriteReg(R15 (PC), 0x20000020)  returns 0x00 (0000ms, 0325ms total)
T96DC 000:412 JLINK_WriteReg(XPSR, 0x01000000)  returns 0x00 (0000ms, 0325ms total)
T96DC 000:412 JLINK_WriteReg(MSP, 0x20000800)  returns 0x00 (0000ms, 0325ms total)
T96DC 000:412 JLINK_WriteReg(PSP, 0x20000800)  returns 0x00 (0000ms, 0325ms total)
T96DC 000:412 JLINK_WriteReg(CFBP, 0x00000000)  returns 0x00 (0000ms, 0325ms total)
T96DC 000:412 JLINK_SetBPEx(Addr = 0x20000000, Type = 0xFFFFFFF2) -- CPU_ReadMem(4 bytes @ 0x20000000) -- CPU_WriteMem(4 bytes @ 0x20000000) -- CPU_ReadMem(4 bytes @ 0x20000000) -- CPU_WriteMem(4 bytes @ 0x20000000) -- CPU_ReadMem(2 bytes @ 0x20000000)  returns 0x00000001 (0002ms, 0327ms total)
T96DC 000:414 JLINK_Go() -- CPU_WriteMem(2 bytes @ 0x20000000) -- CPU_WriteMem(4 bytes @ 0xE0002008) -- CPU_WriteMem(4 bytes @ 0xE000200C) -- CPU_WriteMem(4 bytes @ 0xE0002010) -- CPU_WriteMem(4 bytes @ 0xE0002014) -- CPU_WriteMem(4 bytes @ 0xE0001004) (0003ms, 0330ms total)
T96DC 000:417 JLINK_IsHalted() -- CPU_ReadMem(2 bytes @ 0x20000000)  returns TRUE (0002ms, 0332ms total)
T96DC 000:419 JLINK_ReadReg(R15 (PC))  returns 0x20000000 (0000ms, 0330ms total)
T96DC 000:419 JLINK_ClrBPEx(BPHandle = 0x00000001)  returns 0x00 (0000ms, 0330ms total)
T96DC 000:419 JLINK_ReadReg(R0)  returns 0x00000000 (0000ms, 0330ms total)
T96DC 000:419 JLINK_WriteReg(R0, 0x08000000)  returns 0x00 (0000ms, 0330ms total)
T96DC 000:419 JLINK_WriteReg(R1, 0x00000800)  returns 0x00 (0000ms, 0330ms total)
T96DC 000:419 JLINK_WriteReg(R2, 0x000000FF)  returns 0x00 (0000ms, 0330ms total)
T96DC 000:419 JLINK_WriteReg(R3, 0x00000000)  returns 0x00 (0001ms, 0331ms total)
T96DC 000:420 JLINK_WriteReg(R4, 0x00000000)  returns 0x00 (0000ms, 0331ms total)
T96DC 000:420 JLINK_WriteReg(R5, 0x00000000)  returns 0x00 (0000ms, 0331ms total)
T96DC 000:420 JLINK_WriteReg(R6, 0x00000000)  returns 0x00 (0000ms, 0331ms total)
T96DC 000:420 JLINK_WriteReg(R7, 0x00000000)  returns 0x00 (0000ms, 0331ms total)
T96DC 000:420 JLINK_WriteReg(R8, 0x00000000)  returns 0x00 (0000ms, 0331ms total)
T96DC 000:420 JLINK_WriteReg(R9, 0x20000200)  returns 0x00 (0000ms, 0331ms total)
T96DC 000:420 JLINK_WriteReg(R10, 0x00000000)  returns 0x00 (0000ms, 0331ms total)
T96DC 000:420 JLINK_WriteReg(R11, 0x00000000)  returns 0x00 (0000ms, 0331ms total)
T96DC 000:420 JLINK_WriteReg(R12, 0x00000000)  returns 0x00 (0000ms, 0331ms total)
T96DC 000:420 JLINK_WriteReg(R13 (SP), 0x20000800)  returns 0x00 (0000ms, 0331ms total)
T96DC 000:420 JLINK_WriteReg(R14, 0x20000001)  returns 0x00 (0000ms, 0331ms total)
T96DC 000:420 JLINK_WriteReg(R15 (PC), 0x200000C8)  returns 0x00 (0000ms, 0331ms total)
T96DC 000:420 JLINK_WriteReg(XPSR, 0x01000000)  returns 0x00 (0000ms, 0331ms total)
T96DC 000:420 JLINK_WriteReg(MSP, 0x20000800)  returns 0x00 (0000ms, 0331ms total)
T96DC 000:420 JLINK_WriteReg(PSP, 0x20000800)  returns 0x00 (0000ms, 0331ms total)
T96DC 000:420 JLINK_WriteReg(CFBP, 0x00000000)  returns 0x00 (0000ms, 0331ms total)
T96DC 000:420 JLINK_SetBPEx(Addr = 0x20000000, Type = 0xFFFFFFF2)  returns 0x00000002 (0000ms, 0331ms total)
T96DC 000:420 JLINK_Go() (0001ms, 0332ms total)
T96DC 000:421 JLINK_IsHalted() -- CPU_ReadMem(2 bytes @ 0x20000000)  returns TRUE (0002ms, 0334ms total)
T96DC 000:423 JLINK_ReadReg(R15 (PC))  returns 0x20000000 (0000ms, 0332ms total)
T96DC 000:423 JLINK_ClrBPEx(BPHandle = 0x00000002)  returns 0x00 (0000ms, 0332ms total)
T96DC 000:423 JLINK_ReadReg(R0)  returns 0x00000001 (0000ms, 0332ms total)
T96DC 000:423 JLINK_WriteReg(R0, 0x08000000)  returns 0x00 (0000ms, 0332ms total)
T96DC 000:423 JLINK_WriteReg(R1, 0x00000800)  returns 0x00 (0000ms, 0332ms total)
T96DC 000:423 JLINK_WriteReg(R2, 0x000000FF)  returns 0x00 (0000ms, 0332ms total)
T96DC 000:423 JLINK_WriteReg(R3, 0x00000000)  returns 0x00 (0000ms, 0332ms total)
T96DC 000:423 JLINK_WriteReg(R4, 0x00000000)  returns 0x00 (0000ms, 0332ms total)
T96DC 000:423 JLINK_WriteReg(R5, 0x00000000)  returns 0x00 (0000ms, 0332ms total)
T96DC 000:423 JLINK_WriteReg(R6, 0x00000000)  returns 0x00 (0000ms, 0332ms total)
T96DC 000:423 JLINK_WriteReg(R7, 0x00000000)  returns 0x00 (0000ms, 0332ms total)
T96DC 000:423 JLINK_WriteReg(R8, 0x00000000)  returns 0x00 (0000ms, 0332ms total)
T96DC 000:423 JLINK_WriteReg(R9, 0x20000200)  returns 0x00 (0000ms, 0332ms total)
T96DC 000:423 JLINK_WriteReg(R10, 0x00000000)  returns 0x00 (0000ms, 0332ms total)
T96DC 000:423 JLINK_WriteReg(R11, 0x00000000)  returns 0x00 (0000ms, 0332ms total)
T96DC 000:423 JLINK_WriteReg(R12, 0x00000000)  returns 0x00 (0001ms, 0333ms total)
T96DC 000:424 JLINK_WriteReg(R13 (SP), 0x20000800)  returns 0x00 (0000ms, 0333ms total)
T96DC 000:424 JLINK_WriteReg(R14, 0x20000001)  returns 0x00 (0000ms, 0333ms total)
T96DC 000:424 JLINK_WriteReg(R15 (PC), 0x20000100)  returns 0x00 (0000ms, 0333ms total)
T96DC 000:424 JLINK_WriteReg(XPSR, 0x01000000)  returns 0x00 (0000ms, 0333ms total)
T96DC 000:424 JLINK_WriteReg(MSP, 0x20000800)  returns 0x00 (0000ms, 0333ms total)
T96DC 000:424 JLINK_WriteReg(PSP, 0x20000800)  returns 0x00 (0000ms, 0333ms total)
T96DC 000:424 JLINK_WriteReg(CFBP, 0x00000000)  returns 0x00 (0000ms, 0333ms total)
T96DC 000:424 JLINK_SetBPEx(Addr = 0x20000000, Type = 0xFFFFFFF2)  returns 0x00000003 (0000ms, 0333ms total)
T96DC 000:424 JLINK_Go() (0000ms, 0333ms total)
T96DC 000:424 JLINK_IsHalted()  returns FALSE (0001ms, 0334ms total)
T96DC 000:455 JLINK_IsHalted() -- CPU_ReadMem(2 bytes @ 0x20000000)  returns TRUE (0002ms, 0335ms total)
T96DC 000:457 JLINK_ReadReg(R15 (PC))  returns 0x20000000 (0000ms, 0333ms total)
T96DC 000:457 JLINK_ClrBPEx(BPHandle = 0x00000003)  returns 0x00 (0000ms, 0333ms total)
T96DC 000:457 JLINK_ReadReg(R0)  returns 0x00000000 (0000ms, 0333ms total)
T96DC 000:458 JLINK_WriteReg(R0, 0x08000800)  returns 0x00 (0000ms, 0333ms total)
T96DC 000:458 JLINK_WriteReg(R1, 0x00000800)  returns 0x00 (0000ms, 0333ms total)
T96DC 000:458 JLINK_WriteReg(R2, 0x000000FF)  returns 0x00 (0000ms, 0333ms total)
T96DC 000:458 JLINK_WriteReg(R3, 0x00000000)  returns 0x00 (0000ms, 0333ms total)
T96DC 000:458 JLINK_WriteReg(R4, 0x00000000)  returns 0x00 (0000ms, 0333ms total)
T96DC 000:458 JLINK_WriteReg(R5, 0x00000000)  returns 0x00 (0000ms, 0333ms total)
T96DC 000:458 JLINK_WriteReg(R6, 0x00000000)  returns 0x00 (0000ms, 0333ms total)
T96DC 000:458 JLINK_WriteReg(R7, 0x00000000)  returns 0x00 (0000ms, 0333ms total)
T96DC 000:458 JLINK_WriteReg(R8, 0x00000000)  returns 0x00 (0000ms, 0333ms total)
T96DC 000:458 JLINK_WriteReg(R9, 0x20000200)  returns 0x00 (0000ms, 0333ms total)
T96DC 000:458 JLINK_WriteReg(R10, 0x00000000)  returns 0x00 (0000ms, 0333ms total)
T96DC 000:458 JLINK_WriteReg(R11, 0x00000000)  returns 0x00 (0000ms, 0333ms total)
T96DC 000:458 JLINK_WriteReg(R12, 0x00000000)  returns 0x00 (0000ms, 0333ms total)
T96DC 000:458 JLINK_WriteReg(R13 (SP), 0x20000800)  returns 0x00 (0000ms, 0333ms total)
T96DC 000:458 JLINK_WriteReg(R14, 0x20000001)  returns 0x00 (0000ms, 0333ms total)
T96DC 000:458 JLINK_WriteReg(R15 (PC), 0x200000C8)  returns 0x00 (0000ms, 0333ms total)
T96DC 000:458 JLINK_WriteReg(XPSR, 0x01000000)  returns 0x00 (0000ms, 0333ms total)
T96DC 000:458 JLINK_WriteReg(MSP, 0x20000800)  returns 0x00 (0000ms, 0333ms total)
T96DC 000:458 JLINK_WriteReg(PSP, 0x20000800)  returns 0x00 (0000ms, 0333ms total)
T96DC 000:458 JLINK_WriteReg(CFBP, 0x00000000)  returns 0x00 (0000ms, 0333ms total)
T96DC 000:458 JLINK_SetBPEx(Addr = 0x20000000, Type = 0xFFFFFFF2)  returns 0x00000004 (0000ms, 0333ms total)
T96DC 000:458 JLINK_Go() (0001ms, 0334ms total)
T96DC 000:459 JLINK_IsHalted() -- CPU_ReadMem(2 bytes @ 0x20000000)  returns TRUE (0002ms, 0336ms total)
T96DC 000:461 JLINK_ReadReg(R15 (PC))  returns 0x20000000 (0000ms, 0334ms total)
T96DC 000:461 JLINK_ClrBPEx(BPHandle = 0x00000004)  returns 0x00 (0000ms, 0334ms total)
T96DC 000:461 JLINK_ReadReg(R0)  returns 0x00000001 (0000ms, 0334ms total)
T96DC 000:461 JLINK_WriteReg(R0, 0x08000800)  returns 0x00 (0000ms, 0334ms total)
T96DC 000:461 JLINK_WriteReg(R1, 0x00000800)  returns 0x00 (0000ms, 0334ms total)
T96DC 000:461 JLINK_WriteReg(R2, 0x000000FF)  returns 0x00 (0000ms, 0334ms total)
T96DC 000:461 JLINK_WriteReg(R3, 0x00000000)  returns 0x00 (0000ms, 0334ms total)
T96DC 000:461 JLINK_WriteReg(R4, 0x00000000)  returns 0x00 (0000ms, 0334ms total)
T96DC 000:461 JLINK_WriteReg(R5, 0x00000000)  returns 0x00 (0000ms, 0334ms total)
T96DC 000:461 JLINK_WriteReg(R6, 0x00000000)  returns 0x00 (0000ms, 0334ms total)
T96DC 000:461 JLINK_WriteReg(R7, 0x00000000)  returns 0x00 (0000ms, 0334ms total)
T96DC 000:462 JLINK_WriteReg(R8, 0x00000000)  returns 0x00 (0000ms, 0334ms total)
T96DC 000:462 JLINK_WriteReg(R9, 0x20000200)  returns 0x00 (0000ms, 0334ms total)
T96DC 000:462 JLINK_WriteReg(R10, 0x00000000)  returns 0x00 (0000ms, 0334ms total)
T96DC 000:462 JLINK_WriteReg(R11, 0x00000000)  returns 0x00 (0000ms, 0334ms total)
T96DC 000:462 JLINK_WriteReg(R12, 0x00000000)  returns 0x00 (0000ms, 0334ms total)
T96DC 000:462 JLINK_WriteReg(R13 (SP), 0x20000800)  returns 0x00 (0000ms, 0334ms total)
T96DC 000:462 JLINK_WriteReg(R14, 0x20000001)  returns 0x00 (0000ms, 0334ms total)
T96DC 000:462 JLINK_WriteReg(R15 (PC), 0x20000100)  returns 0x00 (0000ms, 0334ms total)
T96DC 000:462 JLINK_WriteReg(XPSR, 0x01000000)  returns 0x00 (0000ms, 0334ms total)
T96DC 000:462 JLINK_WriteReg(MSP, 0x20000800)  returns 0x00 (0000ms, 0334ms total)
T96DC 000:462 JLINK_WriteReg(PSP, 0x20000800)  returns 0x00 (0000ms, 0334ms total)
T96DC 000:462 JLINK_WriteReg(CFBP, 0x00000000)  returns 0x00 (0000ms, 0334ms total)
T96DC 000:462 JLINK_SetBPEx(Addr = 0x20000000, Type = 0xFFFFFFF2)  returns 0x00000005 (0000ms, 0334ms total)
T96DC 000:462 JLINK_Go() (0001ms, 0335ms total)
T96DC 000:463 JLINK_IsHalted()  returns FALSE (0000ms, 0335ms total)
T96DC 000:465 JLINK_IsHalted()  returns FALSE (0000ms, 0335ms total)
T96DC 000:467 JLINK_IsHalted()  returns FALSE (0000ms, 0335ms total)
T96DC 000:469 JLINK_IsHalted()  returns FALSE (0000ms, 0335ms total)
T96DC 000:471 JLINK_IsHalted()  returns FALSE (0000ms, 0335ms total)
T96DC 000:473 JLINK_IsHalted()  returns FALSE (0000ms, 0335ms total)
T96DC 000:475 JLINK_IsHalted()  returns FALSE (0000ms, 0335ms total)
T96DC 000:477 JLINK_IsHalted()  returns FALSE (0000ms, 0335ms total)
T96DC 000:479 JLINK_IsHalted()  returns FALSE (0000ms, 0335ms total)
T96DC 000:481 JLINK_IsHalted()  returns FALSE (0000ms, 0335ms total)
T96DC 000:483 JLINK_IsHalted()  returns FALSE (0000ms, 0335ms total)
T96DC 000:484 JLINK_IsHalted()  returns FALSE (0000ms, 0335ms total)
T96DC 000:486 JLINK_IsHalted() -- CPU_ReadMem(2 bytes @ 0x20000000)  returns TRUE (0002ms, 0337ms total)
T96DC 000:488 JLINK_ReadReg(R15 (PC))  returns 0x20000000 (0000ms, 0335ms total)
T96DC 000:488 JLINK_ClrBPEx(BPHandle = 0x00000005)  returns 0x00 (0000ms, 0335ms total)
T96DC 000:488 JLINK_ReadReg(R0)  returns 0x00000000 (0000ms, 0335ms total)
T96DC 000:488 JLINK_WriteReg(R0, 0x00000001)  returns 0x00 (0000ms, 0335ms total)
T96DC 000:488 JLINK_WriteReg(R1, 0x00000800)  returns 0x00 (0000ms, 0335ms total)
T96DC 000:488 JLINK_WriteReg(R2, 0x000000FF)  returns 0x00 (0000ms, 0335ms total)
T96DC 000:488 JLINK_WriteReg(R3, 0x00000000)  returns 0x00 (0000ms, 0335ms total)
T96DC 000:488 JLINK_WriteReg(R4, 0x00000000)  returns 0x00 (0000ms, 0335ms total)
T96DC 000:488 JLINK_WriteReg(R5, 0x00000000)  returns 0x00 (0000ms, 0335ms total)
T96DC 000:488 JLINK_WriteReg(R6, 0x00000000)  returns 0x00 (0000ms, 0335ms total)
T96DC 000:488 JLINK_WriteReg(R7, 0x00000000)  returns 0x00 (0000ms, 0335ms total)
T96DC 000:488 JLINK_WriteReg(R8, 0x00000000)  returns 0x00 (0000ms, 0335ms total)
T96DC 000:488 JLINK_WriteReg(R9, 0x20000200)  returns 0x00 (0000ms, 0335ms total)
T96DC 000:488 JLINK_WriteReg(R10, 0x00000000)  returns 0x00 (0000ms, 0335ms total)
T96DC 000:488 JLINK_WriteReg(R11, 0x00000000)  returns 0x00 (0000ms, 0335ms total)
T96DC 000:488 JLINK_WriteReg(R12, 0x00000000)  returns 0x00 (0001ms, 0336ms total)
T96DC 000:489 JLINK_WriteReg(R13 (SP), 0x20000800)  returns 0x00 (0000ms, 0336ms total)
T96DC 000:489 JLINK_WriteReg(R14, 0x20000001)  returns 0x00 (0000ms, 0336ms total)
T96DC 000:489 JLINK_WriteReg(R15 (PC), 0x2000009E)  returns 0x00 (0000ms, 0336ms total)
T96DC 000:489 JLINK_WriteReg(XPSR, 0x01000000)  returns 0x00 (0000ms, 0336ms total)
T96DC 000:489 JLINK_WriteReg(MSP, 0x20000800)  returns 0x00 (0000ms, 0336ms total)
T96DC 000:489 JLINK_WriteReg(PSP, 0x20000800)  returns 0x00 (0000ms, 0336ms total)
T96DC 000:489 JLINK_WriteReg(CFBP, 0x00000000)  returns 0x00 (0000ms, 0336ms total)
T96DC 000:489 JLINK_SetBPEx(Addr = 0x20000000, Type = 0xFFFFFFF2)  returns 0x00000006 (0000ms, 0336ms total)
T96DC 000:489 JLINK_Go() (0001ms, 0337ms total)
T96DC 000:490 JLINK_IsHalted() -- CPU_ReadMem(2 bytes @ 0x20000000)  returns TRUE (0003ms, 0340ms total)
T96DC 000:493 JLINK_ReadReg(R15 (PC))  returns 0x20000000 (0000ms, 0337ms total)
T96DC 000:493 JLINK_ClrBPEx(BPHandle = 0x00000006)  returns 0x00 (0000ms, 0337ms total)
T96DC 000:493 JLINK_ReadReg(R0)  returns 0x00000000 (0000ms, 0337ms total)
T96DC 000:551 JLINK_WriteMem(0x20000000, 0x0218 Bytes, ...) - Data: 00 BE 0A E0 0D 78 2D 06 68 40 08 24 40 00 00 D3 ... -- CPU_WriteMem(536 bytes @ 0x20000000)  returns 0x218 (0003ms, 0340ms total)
T96DC 000:554 JLINK_WriteReg(R0, 0x08000000)  returns 0x00 (0000ms, 0340ms total)
T96DC 000:554 JLINK_WriteReg(R1, 0x007A1200)  returns 0x00 (0000ms, 0340ms total)
T96DC 000:554 JLINK_WriteReg(R2, 0x00000002)  returns 0x00 (0000ms, 0340ms total)
T96DC 000:554 JLINK_WriteReg(R3, 0x00000000)  returns 0x00 (0000ms, 0340ms total)
T96DC 000:554 JLINK_WriteReg(R4, 0x00000000)  returns 0x00 (0000ms, 0340ms total)
T96DC 000:554 JLINK_WriteReg(R5, 0x00000000)  returns 0x00 (0000ms, 0340ms total)
T96DC 000:554 JLINK_WriteReg(R6, 0x00000000)  returns 0x00 (0000ms, 0340ms total)
T96DC 000:554 JLINK_WriteReg(R7, 0x00000000)  returns 0x00 (0000ms, 0340ms total)
T96DC 000:554 JLINK_WriteReg(R8, 0x00000000)  returns 0x00 (0000ms, 0340ms total)
T96DC 000:554 JLINK_WriteReg(R9, 0x20000200)  returns 0x00 (0000ms, 0340ms total)
T96DC 000:554 JLINK_WriteReg(R10, 0x00000000)  returns 0x00 (0000ms, 0340ms total)
T96DC 000:554 JLINK_WriteReg(R11, 0x00000000)  returns 0x00 (0000ms, 0340ms total)
T96DC 000:554 JLINK_WriteReg(R12, 0x00000000)  returns 0x00 (0000ms, 0340ms total)
T96DC 000:554 JLINK_WriteReg(R13 (SP), 0x20000800)  returns 0x00 (0000ms, 0340ms total)
T96DC 000:554 JLINK_WriteReg(R14, 0x20000001)  returns 0x00 (0000ms, 0340ms total)
T96DC 000:554 JLINK_WriteReg(R15 (PC), 0x20000020)  returns 0x00 (0000ms, 0340ms total)
T96DC 000:554 JLINK_WriteReg(XPSR, 0x01000000)  returns 0x00 (0000ms, 0340ms total)
T96DC 000:554 JLINK_WriteReg(MSP, 0x20000800)  returns 0x00 (0000ms, 0340ms total)
T96DC 000:554 JLINK_WriteReg(PSP, 0x20000800)  returns 0x00 (0000ms, 0340ms total)
T96DC 000:554 JLINK_WriteReg(CFBP, 0x00000000)  returns 0x00 (0000ms, 0340ms total)
T96DC 000:554 JLINK_SetBPEx(Addr = 0x20000000, Type = 0xFFFFFFF2) -- CPU_ReadMem(4 bytes @ 0x20000000) -- CPU_WriteMem(4 bytes @ 0x20000000) -- CPU_ReadMem(4 bytes @ 0x20000000) -- CPU_WriteMem(4 bytes @ 0x20000000) -- CPU_ReadMem(2 bytes @ 0x20000000)  returns 0x00000007 (0002ms, 0342ms total)
T96DC 000:556 JLINK_Go() -- CPU_WriteMem(2 bytes @ 0x20000000) (0001ms, 0343ms total)
T96DC 000:557 JLINK_IsHalted() -- CPU_ReadMem(2 bytes @ 0x20000000)  returns TRUE (0002ms, 0345ms total)
T96DC 000:559 JLINK_ReadReg(R15 (PC))  returns 0x20000000 (0000ms, 0343ms total)
T96DC 000:559 JLINK_ClrBPEx(BPHandle = 0x00000007)  returns 0x00 (0000ms, 0343ms total)
T96DC 000:559 JLINK_ReadReg(R0)  returns 0x00000000 (0000ms, 0343ms total)
T96DC 000:560 JLINK_WriteMem(0x20000218, 0x01E8 Bytes, ...) - Data: 18 04 00 20 D9 00 00 08 B5 0B 00 08 0D 0B 00 08 ... -- CPU_WriteMem(488 bytes @ 0x20000218)  returns 0x1E8 (0002ms, 0345ms total)
T96DC 000:562 JLINK_WriteMem(0x20000400, 0x0218 Bytes, ...) - Data: 00 F0 0A F8 28 69 20 42 03 D0 2C 61 20 46 FF F7 ... -- CPU_WriteMem(536 bytes @ 0x20000400)  returns 0x218 (0002ms, 0347ms total)
T96DC 000:564 JLINK_WriteReg(R0, 0x08000000)  returns 0x00 (0000ms, 0347ms total)
T96DC 000:564 JLINK_WriteReg(R1, 0x00000400)  returns 0x00 (0000ms, 0347ms total)
T96DC 000:564 JLINK_WriteReg(R2, 0x20000218)  returns 0x00 (0000ms, 0347ms total)
T96DC 000:564 JLINK_WriteReg(R3, 0x00000000)  returns 0x00 (0000ms, 0347ms total)
T96DC 000:564 JLINK_WriteReg(R4, 0x00000000)  returns 0x00 (0000ms, 0347ms total)
T96DC 000:564 JLINK_WriteReg(R5, 0x00000000)  returns 0x00 (0000ms, 0347ms total)
T96DC 000:564 JLINK_WriteReg(R6, 0x00000000)  returns 0x00 (0000ms, 0347ms total)
T96DC 000:564 JLINK_WriteReg(R7, 0x00000000)  returns 0x00 (0000ms, 0347ms total)
T96DC 000:564 JLINK_WriteReg(R8, 0x00000000)  returns 0x00 (0000ms, 0347ms total)
T96DC 000:564 JLINK_WriteReg(R9, 0x20000200)  returns 0x00 (0000ms, 0347ms total)
T96DC 000:564 JLINK_WriteReg(R10, 0x00000000)  returns 0x00 (0000ms, 0347ms total)
T96DC 000:564 JLINK_WriteReg(R11, 0x00000000)  returns 0x00 (0000ms, 0347ms total)
T96DC 000:564 JLINK_WriteReg(R12, 0x00000000)  returns 0x00 (0000ms, 0347ms total)
T96DC 000:564 JLINK_WriteReg(R13 (SP), 0x20000800)  returns 0x00 (0000ms, 0347ms total)
T96DC 000:564 JLINK_WriteReg(R14, 0x20000001)  returns 0x00 (0000ms, 0347ms total)
T96DC 000:564 JLINK_WriteReg(R15 (PC), 0x2000017E)  returns 0x00 (0000ms, 0347ms total)
T96DC 000:564 JLINK_WriteReg(XPSR, 0x01000000)  returns 0x00 (0000ms, 0347ms total)
T96DC 000:564 JLINK_WriteReg(MSP, 0x20000800)  returns 0x00 (0000ms, 0347ms total)
T96DC 000:564 JLINK_WriteReg(PSP, 0x20000800)  returns 0x00 (0000ms, 0347ms total)
T96DC 000:564 JLINK_WriteReg(CFBP, 0x00000000)  returns 0x00 (0000ms, 0347ms total)
T96DC 000:564 JLINK_SetBPEx(Addr = 0x20000000, Type = 0xFFFFFFF2)  returns 0x00000008 (0000ms, 0347ms total)
T96DC 000:564 JLINK_Go() (0002ms, 0349ms total)
T96DC 000:566 JLINK_IsHalted()  returns FALSE (0000ms, 0349ms total)
T96DC 000:576 JLINK_IsHalted()  returns FALSE (0000ms, 0349ms total)
T96DC 000:578 JLINK_IsHalted() -- CPU_ReadMem(2 bytes @ 0x20000000)  returns TRUE (0002ms, 0351ms total)
T96DC 000:580 JLINK_ReadReg(R15 (PC))  returns 0x20000000 (0000ms, 0349ms total)
T96DC 000:580 JLINK_ClrBPEx(BPHandle = 0x00000008)  returns 0x00 (0000ms, 0349ms total)
T96DC 000:580 JLINK_ReadReg(R0)  returns 0x00000000 (0000ms, 0349ms total)
T96DC 000:580 JLINK_WriteMem(0x20000218, 0x01E8 Bytes, ...) - Data: 02 E0 01 24 00 E0 01 24 20 46 70 BD 04 00 00 20 ... -- CPU_WriteMem(488 bytes @ 0x20000218)  returns 0x1E8 (0003ms, 0352ms total)
T96DC 000:583 JLINK_WriteMem(0x20000400, 0x0218 Bytes, ...) - Data: B1 68 3C 22 89 09 11 40 08 4A 51 5C C9 06 C9 0E ... -- CPU_WriteMem(536 bytes @ 0x20000400)  returns 0x218 (0002ms, 0354ms total)
T96DC 000:585 JLINK_WriteReg(R0, 0x08000400)  returns 0x00 (0000ms, 0354ms total)
T96DC 000:585 JLINK_WriteReg(R1, 0x00000400)  returns 0x00 (0000ms, 0354ms total)
T96DC 000:585 JLINK_WriteReg(R2, 0x20000218)  returns 0x00 (0000ms, 0354ms total)
T96DC 000:585 JLINK_WriteReg(R3, 0x00000000)  returns 0x00 (0000ms, 0354ms total)
T96DC 000:585 JLINK_WriteReg(R4, 0x00000000)  returns 0x00 (0000ms, 0354ms total)
T96DC 000:585 JLINK_WriteReg(R5, 0x00000000)  returns 0x00 (0000ms, 0354ms total)
T96DC 000:585 JLINK_WriteReg(R6, 0x00000000)  returns 0x00 (0000ms, 0354ms total)
T96DC 000:585 JLINK_WriteReg(R7, 0x00000000)  returns 0x00 (0000ms, 0354ms total)
T96DC 000:585 JLINK_WriteReg(R8, 0x00000000)  returns 0x00 (0000ms, 0354ms total)
T96DC 000:586 JLINK_WriteReg(R9, 0x20000200)  returns 0x00 (0000ms, 0355ms total)
T96DC 000:586 JLINK_WriteReg(R10, 0x00000000)  returns 0x00 (0000ms, 0355ms total)
T96DC 000:586 JLINK_WriteReg(R11, 0x00000000)  returns 0x00 (0000ms, 0355ms total)
T96DC 000:586 JLINK_WriteReg(R12, 0x00000000)  returns 0x00 (0000ms, 0355ms total)
T96DC 000:586 JLINK_WriteReg(R13 (SP), 0x20000800)  returns 0x00 (0000ms, 0355ms total)
T96DC 000:586 JLINK_WriteReg(R14, 0x20000001)  returns 0x00 (0000ms, 0355ms total)
T96DC 000:586 JLINK_WriteReg(R15 (PC), 0x2000017E)  returns 0x00 (0000ms, 0355ms total)
T96DC 000:586 JLINK_WriteReg(XPSR, 0x01000000)  returns 0x00 (0000ms, 0355ms total)
T96DC 000:586 JLINK_WriteReg(MSP, 0x20000800)  returns 0x00 (0000ms, 0355ms total)
T96DC 000:586 JLINK_WriteReg(PSP, 0x20000800)  returns 0x00 (0000ms, 0355ms total)
T96DC 000:586 JLINK_WriteReg(CFBP, 0x00000000)  returns 0x00 (0000ms, 0355ms total)
T96DC 000:586 JLINK_SetBPEx(Addr = 0x20000000, Type = 0xFFFFFFF2)  returns 0x00000009 (0000ms, 0355ms total)
T96DC 000:586 JLINK_Go() (0001ms, 0356ms total)
T96DC 000:587 JLINK_IsHalted()  returns FALSE (0000ms, 0356ms total)
T96DC 000:588 JLINK_IsHalted()  returns FALSE (0000ms, 0356ms total)
T96DC 000:590 JLINK_IsHalted()  returns FALSE (0000ms, 0356ms total)
T96DC 000:592 JLINK_IsHalted()  returns FALSE (0000ms, 0356ms total)
T96DC 000:594 JLINK_IsHalted()  returns FALSE (0000ms, 0356ms total)
T96DC 000:595 JLINK_IsHalted()  returns FALSE (0000ms, 0356ms total)
T96DC 000:597 JLINK_IsHalted()  returns FALSE (0000ms, 0356ms total)
T96DC 000:598 JLINK_IsHalted() -- CPU_ReadMem(2 bytes @ 0x20000000)  returns TRUE (0002ms, 0358ms total)
T96DC 000:600 JLINK_ReadReg(R15 (PC))  returns 0x20000000 (0000ms, 0356ms total)
T96DC 000:600 JLINK_ClrBPEx(BPHandle = 0x00000009)  returns 0x00 (0000ms, 0356ms total)
T96DC 000:600 JLINK_ReadReg(R0)  returns 0x00000000 (0000ms, 0356ms total)
T96DC 000:601 JLINK_WriteMem(0x20000218, 0x01E8 Bytes, ...) - Data: E1 FD 00 28 27 D0 01 20 FE BD FF F7 B9 FD 40 1B ... -- CPU_WriteMem(488 bytes @ 0x20000218)  returns 0x1E8 (0002ms, 0358ms total)
T96DC 000:603 JLINK_WriteMem(0x20000400, 0x0218 Bytes, ...) - Data: CB FC 05 46 06 E0 FF F7 C7 FC 40 1B 02 28 01 D9 ... -- CPU_WriteMem(536 bytes @ 0x20000400)  returns 0x218 (0003ms, 0361ms total)
T96DC 000:606 JLINK_WriteReg(R0, 0x08000800)  returns 0x00 (0000ms, 0361ms total)
T96DC 000:606 JLINK_WriteReg(R1, 0x00000400)  returns 0x00 (0000ms, 0361ms total)
T96DC 000:606 JLINK_WriteReg(R2, 0x20000218)  returns 0x00 (0000ms, 0361ms total)
T96DC 000:606 JLINK_WriteReg(R3, 0x00000000)  returns 0x00 (0000ms, 0361ms total)
T96DC 000:606 JLINK_WriteReg(R4, 0x00000000)  returns 0x00 (0000ms, 0361ms total)
T96DC 000:606 JLINK_WriteReg(R5, 0x00000000)  returns 0x00 (0000ms, 0361ms total)
T96DC 000:606 JLINK_WriteReg(R6, 0x00000000)  returns 0x00 (0000ms, 0361ms total)
T96DC 000:606 JLINK_WriteReg(R7, 0x00000000)  returns 0x00 (0000ms, 0361ms total)
T96DC 000:606 JLINK_WriteReg(R8, 0x00000000)  returns 0x00 (0000ms, 0361ms total)
T96DC 000:606 JLINK_WriteReg(R9, 0x20000200)  returns 0x00 (0000ms, 0361ms total)
T96DC 000:606 JLINK_WriteReg(R10, 0x00000000)  returns 0x00 (0000ms, 0361ms total)
T96DC 000:606 JLINK_WriteReg(R11, 0x00000000)  returns 0x00 (0000ms, 0361ms total)
T96DC 000:606 JLINK_WriteReg(R12, 0x00000000)  returns 0x00 (0000ms, 0361ms total)
T96DC 000:606 JLINK_WriteReg(R13 (SP), 0x20000800)  returns 0x00 (0000ms, 0361ms total)
T96DC 000:606 JLINK_WriteReg(R14, 0x20000001)  returns 0x00 (0000ms, 0361ms total)
T96DC 000:606 JLINK_WriteReg(R15 (PC), 0x2000017E)  returns 0x00 (0000ms, 0361ms total)
T96DC 000:606 JLINK_WriteReg(XPSR, 0x01000000)  returns 0x00 (0000ms, 0361ms total)
T96DC 000:606 JLINK_WriteReg(MSP, 0x20000800)  returns 0x00 (0000ms, 0361ms total)
T96DC 000:606 JLINK_WriteReg(PSP, 0x20000800)  returns 0x00 (0000ms, 0361ms total)
T96DC 000:606 JLINK_WriteReg(CFBP, 0x00000000)  returns 0x00 (0000ms, 0361ms total)
T96DC 000:606 JLINK_SetBPEx(Addr = 0x20000000, Type = 0xFFFFFFF2)  returns 0x0000000A (0000ms, 0361ms total)
T96DC 000:606 JLINK_Go() (0001ms, 0362ms total)
T96DC 000:607 JLINK_IsHalted()  returns FALSE (0000ms, 0362ms total)
T96DC 000:609 JLINK_IsHalted()  returns FALSE (0000ms, 0362ms total)
T96DC 000:611 JLINK_IsHalted()  returns FALSE (0000ms, 0362ms total)
T96DC 000:613 JLINK_IsHalted()  returns FALSE (0000ms, 0362ms total)
T96DC 000:615 JLINK_IsHalted()  returns FALSE (0000ms, 0362ms total)
T96DC 000:616 JLINK_IsHalted()  returns FALSE (0000ms, 0362ms total)
T96DC 000:618 JLINK_IsHalted()  returns FALSE (0000ms, 0362ms total)
T96DC 000:620 JLINK_IsHalted() -- CPU_ReadMem(2 bytes @ 0x20000000)  returns TRUE (0002ms, 0364ms total)
T96DC 000:622 JLINK_ReadReg(R15 (PC))  returns 0x20000000 (0000ms, 0362ms total)
T96DC 000:622 JLINK_ClrBPEx(BPHandle = 0x0000000A)  returns 0x00 (0000ms, 0362ms total)
T96DC 000:622 JLINK_ReadReg(R0)  returns 0x00000000 (0000ms, 0362ms total)
T96DC 000:623 JLINK_WriteMem(0x20000218, 0x01E8 Bytes, ...) - Data: 04 A8 FF F7 5B FD 00 28 01 D0 FF F7 BE FA 07 20 ... -- CPU_WriteMem(488 bytes @ 0x20000218)  returns 0x1E8 (0002ms, 0364ms total)
T96DC 000:625 JLINK_WriteMem(0x20000400, 0x0218 Bytes, ...) - Data: FF F7 D2 F9 00 22 08 21 20 46 FF F7 BE FA 32 20 ... -- CPU_WriteMem(536 bytes @ 0x20000400)  returns 0x218 (0002ms, 0366ms total)
T96DC 000:627 JLINK_WriteReg(R0, 0x08000C00)  returns 0x00 (0000ms, 0366ms total)
T96DC 000:627 JLINK_WriteReg(R1, 0x000003E8)  returns 0x00 (0000ms, 0366ms total)
T96DC 000:627 JLINK_WriteReg(R2, 0x20000218)  returns 0x00 (0000ms, 0366ms total)
T96DC 000:627 JLINK_WriteReg(R3, 0x00000000)  returns 0x00 (0000ms, 0366ms total)
T96DC 000:627 JLINK_WriteReg(R4, 0x00000000)  returns 0x00 (0000ms, 0366ms total)
T96DC 000:627 JLINK_WriteReg(R5, 0x00000000)  returns 0x00 (0000ms, 0366ms total)
T96DC 000:627 JLINK_WriteReg(R6, 0x00000000)  returns 0x00 (0000ms, 0366ms total)
T96DC 000:627 JLINK_WriteReg(R7, 0x00000000)  returns 0x00 (0000ms, 0366ms total)
T96DC 000:627 JLINK_WriteReg(R8, 0x00000000)  returns 0x00 (0000ms, 0366ms total)
T96DC 000:627 JLINK_WriteReg(R9, 0x20000200)  returns 0x00 (0000ms, 0366ms total)
T96DC 000:627 JLINK_WriteReg(R10, 0x00000000)  returns 0x00 (0000ms, 0366ms total)
T96DC 000:627 JLINK_WriteReg(R11, 0x00000000)  returns 0x00 (0000ms, 0366ms total)
T96DC 000:627 JLINK_WriteReg(R12, 0x00000000)  returns 0x00 (0000ms, 0366ms total)
T96DC 000:627 JLINK_WriteReg(R13 (SP), 0x20000800)  returns 0x00 (0000ms, 0366ms total)
T96DC 000:627 JLINK_WriteReg(R14, 0x20000001)  returns 0x00 (0000ms, 0366ms total)
T96DC 000:627 JLINK_WriteReg(R15 (PC), 0x2000017E)  returns 0x00 (0000ms, 0366ms total)
T96DC 000:627 JLINK_WriteReg(XPSR, 0x01000000)  returns 0x00 (0000ms, 0366ms total)
T96DC 000:627 JLINK_WriteReg(MSP, 0x20000800)  returns 0x00 (0000ms, 0366ms total)
T96DC 000:627 JLINK_WriteReg(PSP, 0x20000800)  returns 0x00 (0001ms, 0367ms total)
T96DC 000:628 JLINK_WriteReg(CFBP, 0x00000000)  returns 0x00 (0000ms, 0367ms total)
T96DC 000:628 JLINK_SetBPEx(Addr = 0x20000000, Type = 0xFFFFFFF2)  returns 0x0000000B (0000ms, 0367ms total)
T96DC 000:628 JLINK_Go() (0001ms, 0368ms total)
T96DC 000:629 JLINK_IsHalted()  returns FALSE (0000ms, 0368ms total)
T96DC 000:631 JLINK_IsHalted()  returns FALSE (0000ms, 0368ms total)
T96DC 000:633 JLINK_IsHalted()  returns FALSE (0000ms, 0368ms total)
T96DC 000:635 JLINK_IsHalted()  returns FALSE (0000ms, 0368ms total)
T96DC 000:637 JLINK_IsHalted()  returns FALSE (0000ms, 0368ms total)
T96DC 000:639 JLINK_IsHalted()  returns FALSE (0000ms, 0368ms total)
T96DC 000:641 JLINK_IsHalted() -- CPU_ReadMem(2 bytes @ 0x20000000)  returns TRUE (0002ms, 0370ms total)
T96DC 000:643 JLINK_ReadReg(R15 (PC))  returns 0x20000000 (0000ms, 0368ms total)
T96DC 000:643 JLINK_ClrBPEx(BPHandle = 0x0000000B)  returns 0x00 (0000ms, 0368ms total)
T96DC 000:643 JLINK_ReadReg(R0)  returns 0x00000000 (0000ms, 0368ms total)
T96DC 000:643 JLINK_WriteReg(R0, 0x00000002)  returns 0x00 (0000ms, 0368ms total)
T96DC 000:643 JLINK_WriteReg(R1, 0x000003E8)  returns 0x00 (0000ms, 0368ms total)
T96DC 000:643 JLINK_WriteReg(R2, 0x20000218)  returns 0x00 (0000ms, 0368ms total)
T96DC 000:643 JLINK_WriteReg(R3, 0x00000000)  returns 0x00 (0000ms, 0368ms total)
T96DC 000:643 JLINK_WriteReg(R4, 0x00000000)  returns 0x00 (0000ms, 0368ms total)
T96DC 000:643 JLINK_WriteReg(R5, 0x00000000)  returns 0x00 (0000ms, 0368ms total)
T96DC 000:643 JLINK_WriteReg(R6, 0x00000000)  returns 0x00 (0000ms, 0368ms total)
T96DC 000:643 JLINK_WriteReg(R7, 0x00000000)  returns 0x00 (0000ms, 0368ms total)
T96DC 000:643 JLINK_WriteReg(R8, 0x00000000)  returns 0x00 (0000ms, 0368ms total)
T96DC 000:643 JLINK_WriteReg(R9, 0x20000200)  returns 0x00 (0000ms, 0368ms total)
T96DC 000:643 JLINK_WriteReg(R10, 0x00000000)  returns 0x00 (0000ms, 0368ms total)
T96DC 000:643 JLINK_WriteReg(R11, 0x00000000)  returns 0x00 (0000ms, 0368ms total)
T96DC 000:643 JLINK_WriteReg(R12, 0x00000000)  returns 0x00 (0000ms, 0368ms total)
T96DC 000:643 JLINK_WriteReg(R13 (SP), 0x20000800)  returns 0x00 (0000ms, 0368ms total)
T96DC 000:643 JLINK_WriteReg(R14, 0x20000001)  returns 0x00 (0000ms, 0368ms total)
T96DC 000:643 JLINK_WriteReg(R15 (PC), 0x2000009E)  returns 0x00 (0000ms, 0368ms total)
T96DC 000:643 JLINK_WriteReg(XPSR, 0x01000000)  returns 0x00 (0000ms, 0368ms total)
T96DC 000:643 JLINK_WriteReg(MSP, 0x20000800)  returns 0x00 (0000ms, 0368ms total)
T96DC 000:643 JLINK_WriteReg(PSP, 0x20000800)  returns 0x00 (0000ms, 0368ms total)
T96DC 000:643 JLINK_WriteReg(CFBP, 0x00000000)  returns 0x00 (0000ms, 0368ms total)
T96DC 000:643 JLINK_SetBPEx(Addr = 0x20000000, Type = 0xFFFFFFF2)  returns 0x0000000C (0000ms, 0368ms total)
T96DC 000:643 JLINK_Go() (0001ms, 0369ms total)
T96DC 000:644 JLINK_IsHalted() -- CPU_ReadMem(2 bytes @ 0x20000000)  returns TRUE (0003ms, 0372ms total)
T96DC 000:647 JLINK_ReadReg(R15 (PC))  returns 0x20000000 (0000ms, 0369ms total)
T96DC 000:647 JLINK_ClrBPEx(BPHandle = 0x0000000C)  returns 0x00 (0000ms, 0369ms total)
T96DC 000:647 JLINK_ReadReg(R0)  returns 0x00000000 (0000ms, 0369ms total)
T96DC 000:705 JLINK_WriteMem(0x20000000, 0x0218 Bytes, ...) - Data: 00 BE 0A E0 0D 78 2D 06 68 40 08 24 40 00 00 D3 ... -- CPU_WriteMem(536 bytes @ 0x20000000)  returns 0x218 (0002ms, 0371ms total)
T96DC 000:707 JLINK_WriteReg(R0, 0x08000000)  returns 0x00 (0000ms, 0371ms total)
T96DC 000:707 JLINK_WriteReg(R1, 0x007A1200)  returns 0x00 (0000ms, 0371ms total)
T96DC 000:707 JLINK_WriteReg(R2, 0x00000003)  returns 0x00 (0000ms, 0371ms total)
T96DC 000:707 JLINK_WriteReg(R3, 0x00000000)  returns 0x00 (0001ms, 0372ms total)
T96DC 000:708 JLINK_WriteReg(R4, 0x00000000)  returns 0x00 (0000ms, 0372ms total)
T96DC 000:708 JLINK_WriteReg(R5, 0x00000000)  returns 0x00 (0000ms, 0372ms total)
T96DC 000:708 JLINK_WriteReg(R6, 0x00000000)  returns 0x00 (0000ms, 0372ms total)
T96DC 000:708 JLINK_WriteReg(R7, 0x00000000)  returns 0x00 (0000ms, 0372ms total)
T96DC 000:708 JLINK_WriteReg(R8, 0x00000000)  returns 0x00 (0000ms, 0372ms total)
T96DC 000:708 JLINK_WriteReg(R9, 0x20000200)  returns 0x00 (0000ms, 0372ms total)
T96DC 000:708 JLINK_WriteReg(R10, 0x00000000)  returns 0x00 (0000ms, 0372ms total)
T96DC 000:708 JLINK_WriteReg(R11, 0x00000000)  returns 0x00 (0000ms, 0372ms total)
T96DC 000:708 JLINK_WriteReg(R12, 0x00000000)  returns 0x00 (0000ms, 0372ms total)
T96DC 000:708 JLINK_WriteReg(R13 (SP), 0x20000800)  returns 0x00 (0000ms, 0372ms total)
T96DC 000:708 JLINK_WriteReg(R14, 0x20000001)  returns 0x00 (0000ms, 0372ms total)
T96DC 000:708 JLINK_WriteReg(R15 (PC), 0x20000020)  returns 0x00 (0000ms, 0372ms total)
T96DC 000:708 JLINK_WriteReg(XPSR, 0x01000000)  returns 0x00 (0000ms, 0372ms total)
T96DC 000:708 JLINK_WriteReg(MSP, 0x20000800)  returns 0x00 (0000ms, 0372ms total)
T96DC 000:708 JLINK_WriteReg(PSP, 0x20000800)  returns 0x00 (0000ms, 0372ms total)
T96DC 000:708 JLINK_WriteReg(CFBP, 0x00000000)  returns 0x00 (0000ms, 0372ms total)
T96DC 000:708 JLINK_SetBPEx(Addr = 0x20000000, Type = 0xFFFFFFF2) -- CPU_ReadMem(4 bytes @ 0x20000000) -- CPU_WriteMem(4 bytes @ 0x20000000) -- CPU_ReadMem(4 bytes @ 0x20000000) -- CPU_WriteMem(4 bytes @ 0x20000000) -- CPU_ReadMem(2 bytes @ 0x20000000)  returns 0x0000000D (0001ms, 0373ms total)
T96DC 000:709 JLINK_Go() -- CPU_WriteMem(2 bytes @ 0x20000000) (0002ms, 0375ms total)
T96DC 000:711 JLINK_IsHalted() -- CPU_ReadMem(2 bytes @ 0x20000000)  returns TRUE (0002ms, 0377ms total)
T96DC 000:713 JLINK_ReadReg(R15 (PC))  returns 0x20000000 (0000ms, 0375ms total)
T96DC 000:713 JLINK_ClrBPEx(BPHandle = 0x0000000D)  returns 0x00 (0000ms, 0375ms total)
T96DC 000:713 JLINK_ReadReg(R0)  returns 0x00000000 (0000ms, 0375ms total)
T96DC 000:713 JLINK_WriteReg(R0, 0xFFFFFFFF)  returns 0x00 (0000ms, 0375ms total)
T96DC 000:713 JLINK_WriteReg(R1, 0x08000000)  returns 0x00 (0000ms, 0375ms total)
T96DC 000:713 JLINK_WriteReg(R2, 0x00000FE8)  returns 0x00 (0000ms, 0375ms total)
T96DC 000:713 JLINK_WriteReg(R3, 0x04C11DB7)  returns 0x00 (0000ms, 0375ms total)
T96DC 000:713 JLINK_WriteReg(R4, 0x00000000)  returns 0x00 (0000ms, 0375ms total)
T96DC 000:713 JLINK_WriteReg(R5, 0x00000000)  returns 0x00 (0000ms, 0375ms total)
T96DC 000:713 JLINK_WriteReg(R6, 0x00000000)  returns 0x00 (0000ms, 0375ms total)
T96DC 000:713 JLINK_WriteReg(R7, 0x00000000)  returns 0x00 (0000ms, 0375ms total)
T96DC 000:713 JLINK_WriteReg(R8, 0x00000000)  returns 0x00 (0000ms, 0375ms total)
T96DC 000:713 JLINK_WriteReg(R9, 0x20000200)  returns 0x00 (0000ms, 0375ms total)
T96DC 000:713 JLINK_WriteReg(R10, 0x00000000)  returns 0x00 (0000ms, 0375ms total)
T96DC 000:713 JLINK_WriteReg(R11, 0x00000000)  returns 0x00 (0000ms, 0375ms total)
T96DC 000:713 JLINK_WriteReg(R12, 0x00000000)  returns 0x00 (0000ms, 0375ms total)
T96DC 000:713 JLINK_WriteReg(R13 (SP), 0x20000800)  returns 0x00 (0000ms, 0375ms total)
T96DC 000:713 JLINK_WriteReg(R14, 0x20000001)  returns 0x00 (0000ms, 0375ms total)
T96DC 000:713 JLINK_WriteReg(R15 (PC), 0x20000002)  returns 0x00 (0000ms, 0375ms total)
T96DC 000:713 JLINK_WriteReg(XPSR, 0x01000000)  returns 0x00 (0000ms, 0375ms total)
T96DC 000:713 JLINK_WriteReg(MSP, 0x20000800)  returns 0x00 (0000ms, 0375ms total)
T96DC 000:713 JLINK_WriteReg(PSP, 0x20000800)  returns 0x00 (0000ms, 0375ms total)
T96DC 000:713 JLINK_WriteReg(CFBP, 0x00000000)  returns 0x00 (0000ms, 0375ms total)
T96DC 000:713 JLINK_SetBPEx(Addr = 0x20000000, Type = 0xFFFFFFF2)  returns 0x0000000E (0000ms, 0375ms total)
T96DC 000:713 JLINK_Go() (0001ms, 0376ms total)
T96DC 000:714 JLINK_IsHalted()  returns FALSE (0001ms, 0377ms total)
T96DC 000:718 JLINK_IsHalted()  returns FALSE (0000ms, 0376ms total)
T96DC 000:720 JLINK_IsHalted()  returns FALSE (0000ms, 0376ms total)
T96DC 000:722 JLINK_IsHalted()  returns FALSE (0000ms, 0376ms total)
T96DC 000:724 JLINK_IsHalted()  returns FALSE (0000ms, 0376ms total)
T96DC 000:726 JLINK_IsHalted()  returns FALSE (0000ms, 0376ms total)
T96DC 000:728 JLINK_IsHalted()  returns FALSE (0000ms, 0376ms total)
T96DC 000:729 JLINK_IsHalted() -- CPU_ReadMem(2 bytes @ 0x20000000)  returns TRUE (0002ms, 0378ms total)
T96DC 000:731 JLINK_ReadReg(R15 (PC))  returns 0x20000000 (0000ms, 0376ms total)
T96DC 000:731 JLINK_ClrBPEx(BPHandle = 0x0000000E)  returns 0x00 (0000ms, 0376ms total)
T96DC 000:731 JLINK_ReadReg(R0)  returns 0xBD887FBC (0000ms, 0376ms total)
T96DC 000:732 JLINK_WriteReg(R0, 0x00000003)  returns 0x00 (0000ms, 0376ms total)
T96DC 000:732 JLINK_WriteReg(R1, 0x08000000)  returns 0x00 (0000ms, 0376ms total)
T96DC 000:732 JLINK_WriteReg(R2, 0x00000FE8)  returns 0x00 (0000ms, 0376ms total)
T96DC 000:732 JLINK_WriteReg(R3, 0x04C11DB7)  returns 0x00 (0000ms, 0376ms total)
T96DC 000:732 JLINK_WriteReg(R4, 0x00000000)  returns 0x00 (0000ms, 0376ms total)
T96DC 000:732 JLINK_WriteReg(R5, 0x00000000)  returns 0x00 (0000ms, 0376ms total)
T96DC 000:732 JLINK_WriteReg(R6, 0x00000000)  returns 0x00 (0000ms, 0376ms total)
T96DC 000:732 JLINK_WriteReg(R7, 0x00000000)  returns 0x00 (0000ms, 0376ms total)
T96DC 000:732 JLINK_WriteReg(R8, 0x00000000)  returns 0x00 (0000ms, 0376ms total)
T96DC 000:732 JLINK_WriteReg(R9, 0x20000200)  returns 0x00 (0001ms, 0377ms total)
T96DC 000:733 JLINK_WriteReg(R10, 0x00000000)  returns 0x00 (0000ms, 0377ms total)
T96DC 000:733 JLINK_WriteReg(R11, 0x00000000)  returns 0x00 (0000ms, 0377ms total)
T96DC 000:733 JLINK_WriteReg(R12, 0x00000000)  returns 0x00 (0000ms, 0377ms total)
T96DC 000:733 JLINK_WriteReg(R13 (SP), 0x20000800)  returns 0x00 (0000ms, 0377ms total)
T96DC 000:733 JLINK_WriteReg(R14, 0x20000001)  returns 0x00 (0000ms, 0377ms total)
T96DC 000:733 JLINK_WriteReg(R15 (PC), 0x2000009E)  returns 0x00 (0000ms, 0377ms total)
T96DC 000:733 JLINK_WriteReg(XPSR, 0x01000000)  returns 0x00 (0000ms, 0377ms total)
T96DC 000:733 JLINK_WriteReg(MSP, 0x20000800)  returns 0x00 (0000ms, 0377ms total)
T96DC 000:733 JLINK_WriteReg(PSP, 0x20000800)  returns 0x00 (0000ms, 0377ms total)
T96DC 000:733 JLINK_WriteReg(CFBP, 0x00000000)  returns 0x00 (0000ms, 0377ms total)
T96DC 000:733 JLINK_SetBPEx(Addr = 0x20000000, Type = 0xFFFFFFF2)  returns 0x0000000F (0000ms, 0377ms total)
T96DC 000:733 JLINK_Go() (0001ms, 0378ms total)
T96DC 000:734 JLINK_IsHalted() -- CPU_ReadMem(2 bytes @ 0x20000000)  returns TRUE (0002ms, 0380ms total)
T96DC 000:736 JLINK_ReadReg(R15 (PC))  returns 0x20000000 (0000ms, 0378ms total)
T96DC 000:736 JLINK_ClrBPEx(BPHandle = 0x0000000F)  returns 0x00 (0000ms, 0378ms total)
T96DC 000:736 JLINK_ReadReg(R0)  returns 0x00000000 (0000ms, 0378ms total)
T96DC 000:791 JLINK_WriteMemEx(0x20000000, 0x0002 Bytes, ..., AccessWidth = 33554432) - Data: FE E7Mis-aligned memory write: Address: 0x20000000, NumBytes: 2, Alignment: 2 (Halfword-aligned)
  ***** Mis-aligned memory write: Address: 0x20000000, NumBytes: 2, Alignment: 2 (Halfword-aligned) -- CPU_WriteMem(2 bytes @ 0x20000000)  returns 0x02 (0004ms, 0382ms total)
T96DC 000:795 JLINK_SetResetType(JLINKARM_RESET_TYPE_NORMAL)  returns JLINKARM_RESET_TYPE_NORMAL (0000ms, 0382ms total)
T96DC 000:795 JLINK_Reset() -- CPU_ReadMem(4 bytes @ 0x20000000) -- CPU_WriteMem(4 bytes @ 0x20000000) -- CPU_WriteMem(4 bytes @ 0xE000EDF0) -- CPU_WriteMem(4 bytes @ 0xE000EDFC) >0x35 TIF> -- CPU_WriteMem(4 bytes @ 0xE000ED0C) -- CPU_ReadMem(4 bytes @ 0xE000EDF0) -- CPU_ReadMem(4 bytes @ 0xE000EDF0) -- CPU_WriteMem(4 bytes @ 0xE000EDF0) -- CPU_WriteMem(4 bytes @ 0xE000EDFC) -- CPU is running -- CPU_ReadMem(4 bytes @ 0xE000EDF0) -- CPU_WriteMem(4 bytes @ 0xE0002000) -- CPU_ReadMem(4 bytes @ 0xE000EDFC)
 -- CPU_ReadMem(4 bytes @ 0xE0001000) -- CPU_WriteMem(4 bytes @ 0xE0001000) (0016ms, 0398ms total)
T96DC 000:811 JLINK_Go() -- CPU_WriteMem(4 bytes @ 0xE0002008) -- CPU_WriteMem(4 bytes @ 0xE000200C) -- CPU_WriteMem(4 bytes @ 0xE0002010) -- CPU_WriteMem(4 bytes @ 0xE0002014) -- CPU_WriteMem(4 bytes @ 0xE0001004) (0001ms, 0399ms total)
T96DC 001:119 JLINK_Close() -- CPU is running -- CPU_WriteMem(4 bytes @ 0xE0002008) -- CPU is running -- CPU_WriteMem(4 bytes @ 0xE000200C) -- CPU is running -- CPU_WriteMem(4 bytes @ 0xE0002010) -- CPU is running -- CPU_WriteMem(4 bytes @ 0xE0002014) >0x42 TIF> >0x28 TIF> >0x0D TIF> >0x21 TIF> (0003ms, 0402ms total)
T96DC 001:119  (0003ms, 0402ms total)
T96DC 001:119 Closed (0003ms, 0402ms total)
